
T3D9C 000:344 SEGGER J-Link V4.94j Log File (0001ms, 0272ms total)
T3D9C 000:344 DLL Compiled: Dec 10 2014 13:52:41 (0002ms, 0273ms total)
T3D9C 000:344 Logging started @ 2017-04-26 14:05 (0002ms, 0273ms total)
T3D9C 000:346 JLINK_SetWarnOutHandler(...) (0000ms, 0273ms total)
T3D9C 000:346 JLINK_OpenEx(...)
Firmware: J-Link ARM V8 compiled Nov 28 2014 13:44:46
Hardware: V8.00
Feature(s): RDI,FlashDL,FlashBP,JFlash,GDBFULL  returns O.K. (0271ms, 0544ms total)
T3D9C 000:617 JLINK_SetErrorOutHandler(...) (0000ms, 0544ms total)
T3D9C 000:617 JLINK_ExecCommand("ProjectFile = "E:\work\product\fkj\firmware\fkj_mcu\project\JLinkSettings.ini"", ...)  returns 0x00 (0002ms, 0546ms total)
T3D9C 000:625 JLINK_ExecCommand("Device = STM32F030C8", ...)Device "STM32F030C8" selected.  returns 0x00 (0008ms, 0554ms total)
T3D9C 000:633 JLINK_ExecCommand("DisableConnectionTimeout", ...)  returns 0x01 (0000ms, 0554ms total)
T3D9C 000:633 JLINK_GetHardwareVersion()  returns 0x13880 (0000ms, 0554ms total)
T3D9C 000:633 JLINK_GetDLLVersion()  returns 49410 (0000ms, 0554ms total)
T3D9C 000:633 JLINK_GetFirmwareString(...) (0000ms, 0554ms total)
T3D9C 000:660 JLINK_GetDLLVersion()  returns 49410 (0000ms, 0554ms total)
T3D9C 000:660 JLINK_GetCompileDateTime() (0000ms, 0554ms total)
T3D9C 000:665 JLINK_GetFirmwareString(...) (0000ms, 0554ms total)
T3D9C 000:671 JLINK_GetHardwareVersion()  returns 0x13880 (0000ms, 0554ms total)
T3D9C 000:685 JLINK_TIF_Select(JLINKARM_TIF_SWD)  returns 0x00 (0001ms, 0555ms total)
T3D9C 000:686 JLINK_SetMaxSpeed() >0x108 TIF>Found SWD-DP with ID 0x0BB11477 >0x0D TIF> >0x28 TIF> >0x0D TIF> >0x28 TIF> >0x0D TIF> >0x21 TIF> >0x0D TIF> >0x28 TIF> >0x0D TIF> >0x28 TIF> >0x0D TIF> >0x28 TIF> >0x0D TIF> >0x21 TIF> >0x0D TIF> >0x21 TIF> >0x0D TIF> >0x28 TIF> >0x0D TIF> >0x21 TIF> >0x0D TIF> >0x21 TIF> >0x0D TIF> >0x28 TIF> >0x0D TIF> >0x21 TIF> >0x0D TIF> >0x21 TIF> >0x0D TIF> >0x28 TIF> >0x0D TIF> >0x28 TIF> >0x0D TIF> >0x28 TIF> >0x0D TIF> >0x21 TIF> >0x0D TIF> >0x21 TIF> >0x0D TIF>
 >0x28 TIF> >0x0D TIF> >0x28 TIF> >0x108 TIF>Found SWD-DP with ID 0x0BB11477 >0x0D TIF> >0x21 TIF> >0x0D TIF> >0x28 TIF> >0x0D TIF> >0x28 TIF> >0x0D TIF> >0x21 TIF> >0x0D TIF> >0x28 TIF> >0x0D TIF> >0x21 TIF> >0x0D TIF> >0x21 TIF> >0x0D TIF> >0x21 TIF> >0x0D TIF> >0x21 TIF> >0x0D TIF> >0x28 TIF> >0x0D TIF> >0x28 TIF> >0x0D TIF> >0x21 TIF> >0x0D TIF> >0x28 TIF> >0x0D TIF> >0x28 TIF> >0x0D TIF> >0x28 TIF> >0x0D TIF> >0x21 TIF> >0x0D TIF> >0x21 TIF> >0x0D TIF> >0x28 TIF> >0x0D TIF> >0x21 TIF> >0x0D TIF>
 >0x21 TIF>Found Cortex-M0 r0p0, Little endian. -- CPU_WriteMem(4 bytes @ 0xE0002000) -- CPU_ReadMem(4 bytes @ 0xE000EDF0) -- CPU_WriteMem(4 bytes @ 0xE000EDF0) -- CPU_ReadMem(4 bytes @ 0xE0002000)FPUnit: 4 code (BP) slots and 0 literal slots -- CPU_ReadMem(4 bytes @ 0xE000EDFC) -- CPU_WriteMem(4 bytes @ 0xE000EDFC) -- CPU_ReadMem(4 bytes @ 0xE0001000) -- CPU_WriteMem(4 bytes @ 0xE0001000) -- CPU_ReadMem(4 bytes @ 0xE00FF018) -- CPU_WriteMem(8192 bytes @ 0x20000000)
                JLINK_Go() (0003ms, 0003ms total)
               (0222ms, 0777ms total)
T3D9C 000:908 JLINK_GetSpeed()  returns 0x7D0 (0000ms, 0777ms total)
T3D9C 000:908 JLINK_SetSpeed(1000) (0001ms, 0778ms total)
T3D9C 000:909 JLINK_GetId() >0x0D TIF> >0x21 TIF>  returns 0x0BB11477 (0000ms, 0778ms total)
T3D9C 000:909 JLINK_CORE_GetFound()  returns 0x60000FF (0000ms, 0778ms total)
T3D9C 000:914 JLINK_ReadMem (0xE00FFFF0, 0x0010 Bytes, ...) -- CPU is running -- CPU_ReadMem(16 bytes @ 0xE00FFFF0) - Data: 0D 00 00 00 10 00 00 00 05 00 00 00 B1 00 00 00  returns 0x00 (0001ms, 0779ms total)
T3D9C 000:915 JLINK_ReadMem (0xE00FFFD0, 0x0020 Bytes, ...) -- CPU is running -- CPU_ReadMem(32 bytes @ 0xE00FFFD0) - Data: 00 00 00 00 00 00 00 00 00 00 00 00 00 00 00 00 ...  returns 0x00 (0001ms, 0780ms total)
T3D9C 000:916 JLINK_ReadMem (0xE00FF000, 0x0018 Bytes, ...) -- CPU is running -- CPU_ReadMem(24 bytes @ 0xE00FF000) - Data: 03 F0 F0 FF 03 20 F0 FF 03 30 F0 FF 00 00 00 00 ...  returns 0x00 (0001ms, 0781ms total)
T3D9C 000:917 JLINK_CORE_GetFound()  returns 0x60000FF (0001ms, 0782ms total)
T3D9C 000:918 JLINK_ReadMemU32(0xE000ED00, 0x0001 Items, ...) -- CPU is running -- CPU_ReadMem(4 bytes @ 0xE000ED00) - Data: 00 C2 0C 41  returns 0x01 (0000ms, 0782ms total)
T3D9C 000:918 JLINK_SetResetType(JLINKARM_RESET_TYPE_NORMAL)  returns JLINKARM_RESET_TYPE_NORMAL (0000ms, 0782ms total)
T3D9C 000:918 JLINK_Reset() -- CPU_ReadMem(4 bytes @ 0x20000000) -- CPU_WriteMem(4 bytes @ 0x20000000) -- CPU is running -- CPU_WriteMem(4 bytes @ 0xE000EDF0) -- CPU is running -- CPU_WriteMem(4 bytes @ 0xE000EDFC) >0x35 TIF> -- CPU is running -- CPU_WriteMem(4 bytes @ 0xE000ED0C) -- CPU is running -- CPU_ReadMem(4 bytes @ 0xE000EDF0) -- CPU is running -- CPU_ReadMem(4 bytes @ 0xE000EDF0) -- CPU is running -- CPU_WriteMem(4 bytes @ 0xE000EDF0) -- CPU is running -- CPU_WriteMem(4 bytes @ 0xE000EDFC)
 -- CPU is running -- CPU_ReadMem(4 bytes @ 0xE000EDF0) -- CPU_WriteMem(4 bytes @ 0xE0002000) -- CPU_ReadMem(4 bytes @ 0xE000EDFC) -- CPU_ReadMem(4 bytes @ 0xE0001000) -- CPU_WriteMem(4 bytes @ 0xE0001000) (0025ms, 0807ms total)
T3D9C 000:943 JLINK_Halt()  returns 0x00 (0000ms, 0807ms total)
T3D9C 000:943 JLINK_IsHalted()  returns TRUE (0000ms, 0807ms total)
T3D9C 000:943 JLINK_ReadMemU32(0xE000EDF0, 0x0001 Items, ...) -- CPU_ReadMem(4 bytes @ 0xE000EDF0) - Data: 03 00 03 00  returns 0x01 (0001ms, 0808ms total)
T3D9C 000:944 JLINK_WriteU32(0xE000EDF0, 0xA05F0003) -- CPU_WriteMem(4 bytes @ 0xE000EDF0)  returns 0x00 (0001ms, 0809ms total)
T3D9C 000:945 JLINK_WriteU32(0xE000EDFC, 0x01000000) -- CPU_WriteMem(4 bytes @ 0xE000EDFC)  returns 0x00 (0000ms, 0809ms total)
T3D9C 000:963 JLINK_GetHWStatus(...)  returns 0x00 (0000ms, 0809ms total)
T3D9C 000:983 JLINK_GetNumBPUnits(Type = 0xFFFFFF00)  returns 0x04 (0000ms, 0809ms total)
T3D9C 000:983 JLINK_GetNumBPUnits(Type = 0xF0)  returns 0x2000 (0000ms, 0809ms total)
T3D9C 000:983 JLINK_GetNumWPUnits()  returns 0x02 (0000ms, 0809ms total)
T3D9C 000:996 JLINK_GetSpeed()  returns 0x3E8 (0000ms, 0809ms total)
T3D9C 001:006 JLINK_ReadMemU32(0xE000E004, 0x0001 Items, ...) -- CPU_ReadMem(4 bytes @ 0xE000E004) - Data: 00 00 00 00  returns 0x01 (0002ms, 0811ms total)
T3D9C 001:008 JLINK_Halt()  returns 0x00 (0000ms, 0811ms total)
T3D9C 001:008 JLINK_IsHalted()  returns TRUE (0000ms, 0811ms total)
T3D9C 001:013 JLINK_WriteMem(0x20000000, 0x0170 Bytes, ...) - Data: 00 BE 0A E0 0D 78 2D 06 68 40 08 24 40 00 00 D3 ... -- CPU_WriteMem(368 bytes @ 0x20000000)  returns 0x170 (0008ms, 0819ms total)
T3D9C 001:021 JLINK_WriteReg(R0, 0x08000000)  returns 0x00 (0000ms, 0819ms total)
T3D9C 001:021 JLINK_WriteReg(R1, 0x007A1200)  returns 0x00 (0000ms, 0819ms total)
T3D9C 001:021 JLINK_WriteReg(R2, 0x00000001)  returns 0x00 (0000ms, 0819ms total)
T3D9C 001:021 JLINK_WriteReg(R3, 0x00000000)  returns 0x00 (0000ms, 0819ms total)
T3D9C 001:021 JLINK_WriteReg(R4, 0x00000000)  returns 0x00 (0000ms, 0819ms total)
T3D9C 001:021 JLINK_WriteReg(R5, 0x00000000)  returns 0x00 (0000ms, 0819ms total)
T3D9C 001:021 JLINK_WriteReg(R6, 0x00000000)  returns 0x00 (0000ms, 0819ms total)
T3D9C 001:021 JLINK_WriteReg(R7, 0x00000000)  returns 0x00 (0000ms, 0819ms total)
T3D9C 001:021 JLINK_WriteReg(R8, 0x00000000)  returns 0x00 (0000ms, 0819ms total)
T3D9C 001:021 JLINK_WriteReg(R9, 0x2000016C)  returns 0x00 (0000ms, 0819ms total)
T3D9C 001:021 JLINK_WriteReg(R10, 0x00000000)  returns 0x00 (0000ms, 0819ms total)
T3D9C 001:021 JLINK_WriteReg(R11, 0x00000000)  returns 0x00 (0000ms, 0819ms total)
T3D9C 001:021 JLINK_WriteReg(R12, 0x00000000)  returns 0x00 (0000ms, 0819ms total)
T3D9C 001:021 JLINK_WriteReg(R13 (SP), 0x20001000)  returns 0x00 (0000ms, 0819ms total)
T3D9C 001:021 JLINK_WriteReg(R14, 0x20000001)  returns 0x00 (0000ms, 0819ms total)
T3D9C 001:021 JLINK_WriteReg(R15 (PC), 0x20000038)  returns 0x00 (0000ms, 0819ms total)
T3D9C 001:021 JLINK_WriteReg(XPSR, 0x01000000)  returns 0x00 (0000ms, 0819ms total)
T3D9C 001:021 JLINK_WriteReg(MSP, 0x20001000)  returns 0x00 (0000ms, 0819ms total)
T3D9C 001:021 JLINK_WriteReg(PSP, 0x20001000)  returns 0x00 (0000ms, 0819ms total)
T3D9C 001:021 JLINK_WriteReg(CFBP, 0x00000000)  returns 0x00 (0000ms, 0819ms total)
T3D9C 001:021 JLINK_SetBPEx(Addr = 0x20000000, Type = 0xFFFFFFF2) -- CPU_ReadMem(2 bytes @ 0x20000000)  returns 0x00000001 (0001ms, 0820ms total)
T3D9C 001:022 JLINK_Go() -- CPU_WriteMem(2 bytes @ 0x20000000) -- CPU_WriteMem(4 bytes @ 0xE0002008) -- CPU_WriteMem(4 bytes @ 0xE000200C) -- CPU_WriteMem(4 bytes @ 0xE0002010) -- CPU_WriteMem(4 bytes @ 0xE0002014) -- CPU_WriteMem(4 bytes @ 0xE0001004) (0008ms, 0828ms total)
T3D9C 001:030 JLINK_IsHalted() -- CPU_ReadMem(2 bytes @ 0x20000000)  returns TRUE (0006ms, 0834ms total)
T3D9C 001:036 JLINK_ReadReg(R15 (PC))  returns 0x20000000 (0000ms, 0828ms total)
T3D9C 001:036 JLINK_ClrBPEx(BPHandle = 0x00000001)  returns 0x00 (0000ms, 0828ms total)
T3D9C 001:036 JLINK_ReadReg(R0)  returns 0x00000000 (0000ms, 0828ms total)
T3D9C 001:036 JLINK_WriteReg(R0, 0x08000000)  returns 0x00 (0000ms, 0828ms total)
T3D9C 001:036 JLINK_WriteReg(R1, 0x00000400)  returns 0x00 (0000ms, 0828ms total)
T3D9C 001:036 JLINK_WriteReg(R2, 0x000000FF)  returns 0x00 (0000ms, 0828ms total)
T3D9C 001:036 JLINK_WriteReg(R3, 0x00000000)  returns 0x00 (0001ms, 0829ms total)
T3D9C 001:037 JLINK_WriteReg(R4, 0x00000000)  returns 0x00 (0000ms, 0829ms total)
T3D9C 001:037 JLINK_WriteReg(R5, 0x00000000)  returns 0x00 (0000ms, 0829ms total)
T3D9C 001:037 JLINK_WriteReg(R6, 0x00000000)  returns 0x00 (0000ms, 0829ms total)
T3D9C 001:037 JLINK_WriteReg(R7, 0x00000000)  returns 0x00 (0000ms, 0829ms total)
T3D9C 001:037 JLINK_WriteReg(R8, 0x00000000)  returns 0x00 (0000ms, 0829ms total)
T3D9C 001:037 JLINK_WriteReg(R9, 0x2000016C)  returns 0x00 (0000ms, 0829ms total)
T3D9C 001:037 JLINK_WriteReg(R10, 0x00000000)  returns 0x00 (0000ms, 0829ms total)
T3D9C 001:037 JLINK_WriteReg(R11, 0x00000000)  returns 0x00 (0000ms, 0829ms total)
T3D9C 001:037 JLINK_WriteReg(R12, 0x00000000)  returns 0x00 (0000ms, 0829ms total)
T3D9C 001:037 JLINK_WriteReg(R13 (SP), 0x20001000)  returns 0x00 (0000ms, 0829ms total)
T3D9C 001:037 JLINK_WriteReg(R14, 0x20000001)  returns 0x00 (0000ms, 0829ms total)
T3D9C 001:037 JLINK_WriteReg(R15 (PC), 0x20000020)  returns 0x00 (0000ms, 0829ms total)
T3D9C 001:037 JLINK_WriteReg(XPSR, 0x01000000)  returns 0x00 (0000ms, 0829ms total)
T3D9C 001:037 JLINK_WriteReg(MSP, 0x20001000)  returns 0x00 (0000ms, 0829ms total)
T3D9C 001:037 JLINK_WriteReg(PSP, 0x20001000)  returns 0x00 (0000ms, 0829ms total)
T3D9C 001:037 JLINK_WriteReg(CFBP, 0x00000000)  returns 0x00 (0000ms, 0829ms total)
T3D9C 001:037 JLINK_SetBPEx(Addr = 0x20000000, Type = 0xFFFFFFF2)  returns 0x00000002 (0000ms, 0829ms total)
T3D9C 001:037 JLINK_Go() (0003ms, 0832ms total)
T3D9C 001:040 JLINK_IsHalted() -- CPU_ReadMem(2 bytes @ 0x20000000)  returns TRUE (0005ms, 0837ms total)
T3D9C 001:045 JLINK_ReadReg(R15 (PC))  returns 0x20000000 (0000ms, 0832ms total)
T3D9C 001:045 JLINK_ClrBPEx(BPHandle = 0x00000002)  returns 0x00 (0000ms, 0832ms total)
T3D9C 001:045 JLINK_ReadReg(R0)  returns 0x00000001 (0000ms, 0832ms total)
T3D9C 001:045 JLINK_WriteReg(R0, 0x08000000)  returns 0x00 (0000ms, 0832ms total)
T3D9C 001:045 JLINK_WriteReg(R1, 0x00000400)  returns 0x00 (0000ms, 0832ms total)
T3D9C 001:045 JLINK_WriteReg(R2, 0x000000FF)  returns 0x00 (0000ms, 0832ms total)
T3D9C 001:045 JLINK_WriteReg(R3, 0x00000000)  returns 0x00 (0000ms, 0832ms total)
T3D9C 001:045 JLINK_WriteReg(R4, 0x00000000)  returns 0x00 (0000ms, 0832ms total)
T3D9C 001:045 JLINK_WriteReg(R5, 0x00000000)  returns 0x00 (0000ms, 0832ms total)
T3D9C 001:045 JLINK_WriteReg(R6, 0x00000000)  returns 0x00 (0000ms, 0832ms total)
T3D9C 001:045 JLINK_WriteReg(R7, 0x00000000)  returns 0x00 (0000ms, 0832ms total)
T3D9C 001:045 JLINK_WriteReg(R8, 0x00000000)  returns 0x00 (0000ms, 0832ms total)
T3D9C 001:045 JLINK_WriteReg(R9, 0x2000016C)  returns 0x00 (0000ms, 0832ms total)
T3D9C 001:045 JLINK_WriteReg(R10, 0x00000000)  returns 0x00 (0000ms, 0832ms total)
T3D9C 001:046 JLINK_WriteReg(R11, 0x00000000)  returns 0x00 (0000ms, 0833ms total)
T3D9C 001:046 JLINK_WriteReg(R12, 0x00000000)  returns 0x00 (0000ms, 0833ms total)
T3D9C 001:046 JLINK_WriteReg(R13 (SP), 0x20001000)  returns 0x00 (0000ms, 0833ms total)
T3D9C 001:046 JLINK_WriteReg(R14, 0x20000001)  returns 0x00 (0000ms, 0833ms total)
T3D9C 001:046 JLINK_WriteReg(R15 (PC), 0x200000B8)  returns 0x00 (0000ms, 0833ms total)
T3D9C 001:046 JLINK_WriteReg(XPSR, 0x01000000)  returns 0x00 (0000ms, 0833ms total)
T3D9C 001:046 JLINK_WriteReg(MSP, 0x20001000)  returns 0x00 (0000ms, 0833ms total)
T3D9C 001:046 JLINK_WriteReg(PSP, 0x20001000)  returns 0x00 (0000ms, 0833ms total)
T3D9C 001:046 JLINK_WriteReg(CFBP, 0x00000000)  returns 0x00 (0000ms, 0833ms total)
T3D9C 001:046 JLINK_SetBPEx(Addr = 0x20000000, Type = 0xFFFFFFF2)  returns 0x00000003 (0000ms, 0833ms total)
T3D9C 001:046 JLINK_Go() (0002ms, 0835ms total)
T3D9C 001:048 JLINK_IsHalted()  returns FALSE (0001ms, 0836ms total)
T3D9C 001:467 JLINK_IsHalted() -- CPU_ReadMem(2 bytes @ 0x20000000)  returns TRUE (0004ms, 0839ms total)
T3D9C 001:471 JLINK_ReadReg(R15 (PC))  returns 0x20000000 (0000ms, 0835ms total)
T3D9C 001:471 JLINK_ClrBPEx(BPHandle = 0x00000003)  returns 0x00 (0000ms, 0835ms total)
T3D9C 001:471 JLINK_ReadReg(R0)  returns 0x00000000 (0000ms, 0835ms total)
T3D9C 001:473 JLINK_WriteReg(R0, 0x08000400)  returns 0x00 (0000ms, 0835ms total)
T3D9C 001:473 JLINK_WriteReg(R1, 0x00000400)  returns 0x00 (0000ms, 0835ms total)
T3D9C 001:473 JLINK_WriteReg(R2, 0x000000FF)  returns 0x00 (0000ms, 0835ms total)
T3D9C 001:473 JLINK_WriteReg(R3, 0x00000000)  returns 0x00 (0000ms, 0835ms total)
T3D9C 001:473 JLINK_WriteReg(R4, 0x00000000)  returns 0x00 (0000ms, 0835ms total)
T3D9C 001:473 JLINK_WriteReg(R5, 0x00000000)  returns 0x00 (0000ms, 0835ms total)
T3D9C 001:473 JLINK_WriteReg(R6, 0x00000000)  returns 0x00 (0000ms, 0835ms total)
T3D9C 001:473 JLINK_WriteReg(R7, 0x00000000)  returns 0x00 (0000ms, 0835ms total)
T3D9C 001:473 JLINK_WriteReg(R8, 0x00000000)  returns 0x00 (0000ms, 0835ms total)
T3D9C 001:473 JLINK_WriteReg(R9, 0x2000016C)  returns 0x00 (0001ms, 0836ms total)
T3D9C 001:474 JLINK_WriteReg(R10, 0x00000000)  returns 0x00 (0000ms, 0836ms total)
T3D9C 001:474 JLINK_WriteReg(R11, 0x00000000)  returns 0x00 (0000ms, 0836ms total)
T3D9C 001:474 JLINK_WriteReg(R12, 0x00000000)  returns 0x00 (0000ms, 0836ms total)
T3D9C 001:474 JLINK_WriteReg(R13 (SP), 0x20001000)  returns 0x00 (0000ms, 0836ms total)
T3D9C 001:474 JLINK_WriteReg(R14, 0x20000001)  returns 0x00 (0000ms, 0836ms total)
T3D9C 001:474 JLINK_WriteReg(R15 (PC), 0x20000020)  returns 0x00 (0000ms, 0836ms total)
T3D9C 001:474 JLINK_WriteReg(XPSR, 0x01000000)  returns 0x00 (0000ms, 0836ms total)
T3D9C 001:474 JLINK_WriteReg(MSP, 0x20001000)  returns 0x00 (0000ms, 0836ms total)
T3D9C 001:474 JLINK_WriteReg(PSP, 0x20001000)  returns 0x00 (0000ms, 0836ms total)
T3D9C 001:474 JLINK_WriteReg(CFBP, 0x00000000)  returns 0x00 (0000ms, 0836ms total)
T3D9C 001:474 JLINK_SetBPEx(Addr = 0x20000000, Type = 0xFFFFFFF2)  returns 0x00000004 (0001ms, 0837ms total)
T3D9C 001:475 JLINK_Go() (0001ms, 0838ms total)
T3D9C 001:476 JLINK_IsHalted() -- CPU_ReadMem(2 bytes @ 0x20000000)  returns TRUE (0005ms, 0843ms total)
T3D9C 001:481 JLINK_ReadReg(R15 (PC))  returns 0x20000000 (0000ms, 0838ms total)
T3D9C 001:481 JLINK_ClrBPEx(BPHandle = 0x00000004)  returns 0x00 (0000ms, 0838ms total)
T3D9C 001:481 JLINK_ReadReg(R0)  returns 0x00000001 (0000ms, 0838ms total)
T3D9C 001:481 JLINK_WriteReg(R0, 0x08000400)  returns 0x00 (0000ms, 0838ms total)
T3D9C 001:481 JLINK_WriteReg(R1, 0x00000400)  returns 0x00 (0000ms, 0838ms total)
T3D9C 001:481 JLINK_WriteReg(R2, 0x000000FF)  returns 0x00 (0000ms, 0838ms total)
T3D9C 001:481 JLINK_WriteReg(R3, 0x00000000)  returns 0x00 (0000ms, 0838ms total)
T3D9C 001:481 JLINK_WriteReg(R4, 0x00000000)  returns 0x00 (0000ms, 0838ms total)
T3D9C 001:481 JLINK_WriteReg(R5, 0x00000000)  returns 0x00 (0000ms, 0838ms total)
T3D9C 001:483 JLINK_WriteReg(R6, 0x00000000)  returns 0x00 (0000ms, 0840ms total)
T3D9C 001:483 JLINK_WriteReg(R7, 0x00000000)  returns 0x00 (0000ms, 0840ms total)
T3D9C 001:483 JLINK_WriteReg(R8, 0x00000000)  returns 0x00 (0000ms, 0840ms total)
T3D9C 001:483 JLINK_WriteReg(R9, 0x2000016C)  returns 0x00 (0000ms, 0840ms total)
T3D9C 001:483 JLINK_WriteReg(R10, 0x00000000)  returns 0x00 (0000ms, 0840ms total)
T3D9C 001:483 JLINK_WriteReg(R11, 0x00000000)  returns 0x00 (0000ms, 0840ms total)
T3D9C 001:483 JLINK_WriteReg(R12, 0x00000000)  returns 0x00 (0000ms, 0840ms total)
T3D9C 001:483 JLINK_WriteReg(R13 (SP), 0x20001000)  returns 0x00 (0000ms, 0840ms total)
T3D9C 001:483 JLINK_WriteReg(R14, 0x20000001)  returns 0x00 (0000ms, 0840ms total)
T3D9C 001:483 JLINK_WriteReg(R15 (PC), 0x200000B8)  returns 0x00 (0000ms, 0840ms total)
T3D9C 001:483 JLINK_WriteReg(XPSR, 0x01000000)  returns 0x00 (0000ms, 0840ms total)
T3D9C 001:483 JLINK_WriteReg(MSP, 0x20001000)  returns 0x00 (0000ms, 0840ms total)
T3D9C 001:483 JLINK_WriteReg(PSP, 0x20001000)  returns 0x00 (0000ms, 0840ms total)
T3D9C 001:483 JLINK_WriteReg(CFBP, 0x00000000)  returns 0x00 (0000ms, 0840ms total)
T3D9C 001:483 JLINK_SetBPEx(Addr = 0x20000000, Type = 0xFFFFFFF2)  returns 0x00000005 (0000ms, 0840ms total)
T3D9C 001:483 JLINK_Go() (0002ms, 0842ms total)
T3D9C 001:485 JLINK_IsHalted()  returns FALSE (0000ms, 0842ms total)
T3D9C 001:492 JLINK_IsHalted()  returns FALSE (0000ms, 0842ms total)
T3D9C 001:494 JLINK_IsHalted()  returns FALSE (0000ms, 0842ms total)
T3D9C 001:515 JLINK_IsHalted() -- CPU_ReadMem(2 bytes @ 0x20000000)  returns TRUE (0005ms, 0847ms total)
T3D9C 001:520 JLINK_ReadReg(R15 (PC))  returns 0x20000000 (0000ms, 0842ms total)
T3D9C 001:520 JLINK_ClrBPEx(BPHandle = 0x00000005)  returns 0x00 (0000ms, 0842ms total)
T3D9C 001:520 JLINK_ReadReg(R0)  returns 0x00000000 (0000ms, 0842ms total)
T3D9C 001:521 JLINK_WriteReg(R0, 0x08000800)  returns 0x00 (0000ms, 0842ms total)
T3D9C 001:521 JLINK_WriteReg(R1, 0x00000400)  returns 0x00 (0000ms, 0842ms total)
T3D9C 001:521 JLINK_WriteReg(R2, 0x000000FF)  returns 0x00 (0000ms, 0842ms total)
T3D9C 001:521 JLINK_WriteReg(R3, 0x00000000)  returns 0x00 (0000ms, 0842ms total)
T3D9C 001:521 JLINK_WriteReg(R4, 0x00000000)  returns 0x00 (0000ms, 0842ms total)
T3D9C 001:521 JLINK_WriteReg(R5, 0x00000000)  returns 0x00 (0000ms, 0842ms total)
T3D9C 001:521 JLINK_WriteReg(R6, 0x00000000)  returns 0x00 (0000ms, 0842ms total)
T3D9C 001:521 JLINK_WriteReg(R7, 0x00000000)  returns 0x00 (0000ms, 0842ms total)
T3D9C 001:521 JLINK_WriteReg(R8, 0x00000000)  returns 0x00 (0000ms, 0842ms total)
T3D9C 001:521 JLINK_WriteReg(R9, 0x2000016C)  returns 0x00 (0001ms, 0843ms total)
T3D9C 001:522 JLINK_WriteReg(R10, 0x00000000)  returns 0x00 (0000ms, 0843ms total)
T3D9C 001:522 JLINK_WriteReg(R11, 0x00000000)  returns 0x00 (0000ms, 0843ms total)
T3D9C 001:522 JLINK_WriteReg(R12, 0x00000000)  returns 0x00 (0000ms, 0843ms total)
T3D9C 001:522 JLINK_WriteReg(R13 (SP), 0x20001000)  returns 0x00 (0000ms, 0843ms total)
T3D9C 001:522 JLINK_WriteReg(R14, 0x20000001)  returns 0x00 (0000ms, 0843ms total)
T3D9C 001:522 JLINK_WriteReg(R15 (PC), 0x20000020)  returns 0x00 (0000ms, 0843ms total)
T3D9C 001:522 JLINK_WriteReg(XPSR, 0x01000000)  returns 0x00 (0000ms, 0843ms total)
T3D9C 001:522 JLINK_WriteReg(MSP, 0x20001000)  returns 0x00 (0000ms, 0843ms total)
T3D9C 001:522 JLINK_WriteReg(PSP, 0x20001000)  returns 0x00 (0000ms, 0843ms total)
T3D9C 001:522 JLINK_WriteReg(CFBP, 0x00000000)  returns 0x00 (0000ms, 0843ms total)
T3D9C 001:522 JLINK_SetBPEx(Addr = 0x20000000, Type = 0xFFFFFFF2)  returns 0x00000006 (0000ms, 0843ms total)
T3D9C 001:522 JLINK_Go() (0001ms, 0844ms total)
T3D9C 001:523 JLINK_IsHalted() -- CPU_ReadMem(2 bytes @ 0x20000000)  returns TRUE (0006ms, 0850ms total)
T3D9C 001:529 JLINK_ReadReg(R15 (PC))  returns 0x20000000 (0000ms, 0844ms total)
T3D9C 001:529 JLINK_ClrBPEx(BPHandle = 0x00000006)  returns 0x00 (0000ms, 0844ms total)
T3D9C 001:529 JLINK_ReadReg(R0)  returns 0x00000001 (0000ms, 0844ms total)
T3D9C 001:529 JLINK_WriteReg(R0, 0x08000800)  returns 0x00 (0000ms, 0844ms total)
T3D9C 001:529 JLINK_WriteReg(R1, 0x00000400)  returns 0x00 (0000ms, 0844ms total)
T3D9C 001:529 JLINK_WriteReg(R2, 0x000000FF)  returns 0x00 (0000ms, 0844ms total)
T3D9C 001:529 JLINK_WriteReg(R3, 0x00000000)  returns 0x00 (0000ms, 0844ms total)
T3D9C 001:529 JLINK_WriteReg(R4, 0x00000000)  returns 0x00 (0000ms, 0844ms total)
T3D9C 001:529 JLINK_WriteReg(R5, 0x00000000)  returns 0x00 (0000ms, 0844ms total)
T3D9C 001:529 JLINK_WriteReg(R6, 0x00000000)  returns 0x00 (0000ms, 0844ms total)
T3D9C 001:529 JLINK_WriteReg(R7, 0x00000000)  returns 0x00 (0000ms, 0844ms total)
T3D9C 001:529 JLINK_WriteReg(R8, 0x00000000)  returns 0x00 (0000ms, 0844ms total)
T3D9C 001:529 JLINK_WriteReg(R9, 0x2000016C)  returns 0x00 (0000ms, 0844ms total)
T3D9C 001:529 JLINK_WriteReg(R10, 0x00000000)  returns 0x00 (0000ms, 0844ms total)
T3D9C 001:529 JLINK_WriteReg(R11, 0x00000000)  returns 0x00 (0000ms, 0844ms total)
T3D9C 001:529 JLINK_WriteReg(R12, 0x00000000)  returns 0x00 (0000ms, 0844ms total)
T3D9C 001:529 JLINK_WriteReg(R13 (SP), 0x20001000)  returns 0x00 (0000ms, 0844ms total)
T3D9C 001:529 JLINK_WriteReg(R14, 0x20000001)  returns 0x00 (0000ms, 0844ms total)
T3D9C 001:529 JLINK_WriteReg(R15 (PC), 0x200000B8)  returns 0x00 (0000ms, 0844ms total)
T3D9C 001:529 JLINK_WriteReg(XPSR, 0x01000000)  returns 0x00 (0000ms, 0844ms total)
T3D9C 001:531 JLINK_WriteReg(MSP, 0x20001000)  returns 0x00 (0000ms, 0846ms total)
T3D9C 001:531 JLINK_WriteReg(PSP, 0x20001000)  returns 0x00 (0000ms, 0846ms total)
T3D9C 001:531 JLINK_WriteReg(CFBP, 0x00000000)  returns 0x00 (0000ms, 0846ms total)
T3D9C 001:531 JLINK_SetBPEx(Addr = 0x20000000, Type = 0xFFFFFFF2)  returns 0x00000007 (0000ms, 0846ms total)
T3D9C 001:531 JLINK_Go() (0001ms, 0847ms total)
T3D9C 001:532 JLINK_IsHalted()  returns FALSE (0000ms, 0847ms total)
T3D9C 001:537 JLINK_IsHalted()  returns FALSE (0000ms, 0847ms total)
T3D9C 001:539 JLINK_IsHalted()  returns FALSE (0000ms, 0847ms total)
T3D9C 001:541 JLINK_IsHalted()  returns FALSE (0000ms, 0847ms total)
T3D9C 001:547 JLINK_IsHalted()  returns FALSE (0000ms, 0847ms total)
T3D9C 001:550 JLINK_IsHalted()  returns FALSE (0000ms, 0847ms total)
T3D9C 001:552 JLINK_IsHalted()  returns FALSE (0000ms, 0847ms total)
T3D9C 001:554 JLINK_IsHalted()  returns FALSE (0000ms, 0847ms total)
T3D9C 001:556 JLINK_IsHalted() -- CPU_ReadMem(2 bytes @ 0x20000000)  returns TRUE (0005ms, 0852ms total)
T3D9C 001:561 JLINK_ReadReg(R15 (PC))  returns 0x20000000 (0000ms, 0847ms total)
T3D9C 001:561 JLINK_ClrBPEx(BPHandle = 0x00000007)  returns 0x00 (0000ms, 0847ms total)
T3D9C 001:561 JLINK_ReadReg(R0)  returns 0x00000000 (0000ms, 0847ms total)
T3D9C 001:562 JLINK_WriteReg(R0, 0x08000C00)  returns 0x00 (0000ms, 0847ms total)
T3D9C 001:562 JLINK_WriteReg(R1, 0x00000400)  returns 0x00 (0000ms, 0847ms total)
T3D9C 001:562 JLINK_WriteReg(R2, 0x000000FF)  returns 0x00 (0001ms, 0848ms total)
T3D9C 001:563 JLINK_WriteReg(R3, 0x00000000)  returns 0x00 (0000ms, 0848ms total)
T3D9C 001:563 JLINK_WriteReg(R4, 0x00000000)  returns 0x00 (0000ms, 0848ms total)
T3D9C 001:563 JLINK_WriteReg(R5, 0x00000000)  returns 0x00 (0000ms, 0848ms total)
T3D9C 001:563 JLINK_WriteReg(R6, 0x00000000)  returns 0x00 (0000ms, 0848ms total)
T3D9C 001:563 JLINK_WriteReg(R7, 0x00000000)  returns 0x00 (0000ms, 0848ms total)
T3D9C 001:563 JLINK_WriteReg(R8, 0x00000000)  returns 0x00 (0000ms, 0848ms total)
T3D9C 001:563 JLINK_WriteReg(R9, 0x2000016C)  returns 0x00 (0000ms, 0848ms total)
T3D9C 001:563 JLINK_WriteReg(R10, 0x00000000)  returns 0x00 (0000ms, 0848ms total)
T3D9C 001:563 JLINK_WriteReg(R11, 0x00000000)  returns 0x00 (0000ms, 0848ms total)
T3D9C 001:563 JLINK_WriteReg(R12, 0x00000000)  returns 0x00 (0000ms, 0848ms total)
T3D9C 001:563 JLINK_WriteReg(R13 (SP), 0x20001000)  returns 0x00 (0000ms, 0848ms total)
T3D9C 001:563 JLINK_WriteReg(R14, 0x20000001)  returns 0x00 (0000ms, 0848ms total)
T3D9C 001:563 JLINK_WriteReg(R15 (PC), 0x20000020)  returns 0x00 (0000ms, 0848ms total)
T3D9C 001:563 JLINK_WriteReg(XPSR, 0x01000000)  returns 0x00 (0000ms, 0848ms total)
T3D9C 001:563 JLINK_WriteReg(MSP, 0x20001000)  returns 0x00 (0000ms, 0848ms total)
T3D9C 001:563 JLINK_WriteReg(PSP, 0x20001000)  returns 0x00 (0000ms, 0848ms total)
T3D9C 001:563 JLINK_WriteReg(CFBP, 0x00000000)  returns 0x00 (0000ms, 0848ms total)
T3D9C 001:563 JLINK_SetBPEx(Addr = 0x20000000, Type = 0xFFFFFFF2)  returns 0x00000008 (0000ms, 0848ms total)
T3D9C 001:563 JLINK_Go() (0002ms, 0850ms total)
T3D9C 001:565 JLINK_IsHalted() -- CPU_ReadMem(2 bytes @ 0x20000000)  returns TRUE (0005ms, 0855ms total)
T3D9C 001:570 JLINK_ReadReg(R15 (PC))  returns 0x20000000 (0000ms, 0850ms total)
T3D9C 001:570 JLINK_ClrBPEx(BPHandle = 0x00000008)  returns 0x00 (0000ms, 0850ms total)
T3D9C 001:570 JLINK_ReadReg(R0)  returns 0x00000001 (0000ms, 0850ms total)
T3D9C 001:570 JLINK_WriteReg(R0, 0x08000C00)  returns 0x00 (0000ms, 0850ms total)
T3D9C 001:570 JLINK_WriteReg(R1, 0x00000400)  returns 0x00 (0000ms, 0850ms total)
T3D9C 001:570 JLINK_WriteReg(R2, 0x000000FF)  returns 0x00 (0000ms, 0850ms total)
T3D9C 001:570 JLINK_WriteReg(R3, 0x00000000)  returns 0x00 (0000ms, 0850ms total)
T3D9C 001:570 JLINK_WriteReg(R4, 0x00000000)  returns 0x00 (0000ms, 0850ms total)
T3D9C 001:570 JLINK_WriteReg(R5, 0x00000000)  returns 0x00 (0002ms, 0852ms total)
T3D9C 001:572 JLINK_WriteReg(R6, 0x00000000)  returns 0x00 (0000ms, 0852ms total)
T3D9C 001:572 JLINK_WriteReg(R7, 0x00000000)  returns 0x00 (0000ms, 0852ms total)
T3D9C 001:572 JLINK_WriteReg(R8, 0x00000000)  returns 0x00 (0000ms, 0852ms total)
T3D9C 001:572 JLINK_WriteReg(R9, 0x2000016C)  returns 0x00 (0000ms, 0852ms total)
T3D9C 001:572 JLINK_WriteReg(R10, 0x00000000)  returns 0x00 (0000ms, 0852ms total)
T3D9C 001:572 JLINK_WriteReg(R11, 0x00000000)  returns 0x00 (0000ms, 0852ms total)
T3D9C 001:572 JLINK_WriteReg(R12, 0x00000000)  returns 0x00 (0000ms, 0852ms total)
T3D9C 001:572 JLINK_WriteReg(R13 (SP), 0x20001000)  returns 0x00 (0000ms, 0852ms total)
T3D9C 001:572 JLINK_WriteReg(R14, 0x20000001)  returns 0x00 (0000ms, 0852ms total)
T3D9C 001:572 JLINK_WriteReg(R15 (PC), 0x200000B8)  returns 0x00 (0000ms, 0852ms total)
T3D9C 001:572 JLINK_WriteReg(XPSR, 0x01000000)  returns 0x00 (0000ms, 0852ms total)
T3D9C 001:572 JLINK_WriteReg(MSP, 0x20001000)  returns 0x00 (0000ms, 0852ms total)
T3D9C 001:572 JLINK_WriteReg(PSP, 0x20001000)  returns 0x00 (0000ms, 0852ms total)
T3D9C 001:572 JLINK_WriteReg(CFBP, 0x00000000)  returns 0x00 (0000ms, 0852ms total)
T3D9C 001:572 JLINK_SetBPEx(Addr = 0x20000000, Type = 0xFFFFFFF2)  returns 0x00000009 (0000ms, 0852ms total)
T3D9C 001:572 JLINK_Go() (0001ms, 0853ms total)
T3D9C 001:575 JLINK_IsHalted()  returns FALSE (0000ms, 0855ms total)
T3D9C 001:582 JLINK_IsHalted()  returns FALSE (0000ms, 0855ms total)
T3D9C 001:584 JLINK_IsHalted()  returns FALSE (0000ms, 0855ms total)
T3D9C 001:585 JLINK_IsHalted()  returns FALSE (0000ms, 0855ms total)
T3D9C 001:588 JLINK_IsHalted()  returns FALSE (0000ms, 0855ms total)
T3D9C 001:600 JLINK_IsHalted() -- CPU_ReadMem(2 bytes @ 0x20000000)  returns TRUE (0004ms, 0859ms total)
T3D9C 001:604 JLINK_ReadReg(R15 (PC))  returns 0x20000000 (0000ms, 0855ms total)
T3D9C 001:604 JLINK_ClrBPEx(BPHandle = 0x00000009)  returns 0x00 (0000ms, 0855ms total)
T3D9C 001:604 JLINK_ReadReg(R0)  returns 0x00000000 (0000ms, 0855ms total)
T3D9C 001:606 JLINK_WriteReg(R0, 0x08001000)  returns 0x00 (0000ms, 0855ms total)
T3D9C 001:606 JLINK_WriteReg(R1, 0x00000400)  returns 0x00 (0000ms, 0855ms total)
T3D9C 001:606 JLINK_WriteReg(R2, 0x000000FF)  returns 0x00 (0000ms, 0855ms total)
T3D9C 001:606 JLINK_WriteReg(R3, 0x00000000)  returns 0x00 (0000ms, 0855ms total)
T3D9C 001:606 JLINK_WriteReg(R4, 0x00000000)  returns 0x00 (0000ms, 0855ms total)
T3D9C 001:606 JLINK_WriteReg(R5, 0x00000000)  returns 0x00 (0000ms, 0855ms total)
T3D9C 001:606 JLINK_WriteReg(R6, 0x00000000)  returns 0x00 (0000ms, 0855ms total)
T3D9C 001:606 JLINK_WriteReg(R7, 0x00000000)  returns 0x00 (0000ms, 0855ms total)
T3D9C 001:606 JLINK_WriteReg(R8, 0x00000000)  returns 0x00 (0000ms, 0855ms total)
T3D9C 001:606 JLINK_WriteReg(R9, 0x2000016C)  returns 0x00 (0000ms, 0855ms total)
T3D9C 001:606 JLINK_WriteReg(R10, 0x00000000)  returns 0x00 (0000ms, 0855ms total)
T3D9C 001:606 JLINK_WriteReg(R11, 0x00000000)  returns 0x00 (0000ms, 0855ms total)
T3D9C 001:606 JLINK_WriteReg(R12, 0x00000000)  returns 0x00 (0000ms, 0855ms total)
T3D9C 001:606 JLINK_WriteReg(R13 (SP), 0x20001000)  returns 0x00 (0000ms, 0855ms total)
T3D9C 001:606 JLINK_WriteReg(R14, 0x20000001)  returns 0x00 (0000ms, 0855ms total)
T3D9C 001:606 JLINK_WriteReg(R15 (PC), 0x20000020)  returns 0x00 (0000ms, 0855ms total)
T3D9C 001:606 JLINK_WriteReg(XPSR, 0x01000000)  returns 0x00 (0000ms, 0855ms total)
T3D9C 001:606 JLINK_WriteReg(MSP, 0x20001000)  returns 0x00 (0000ms, 0855ms total)
T3D9C 001:606 JLINK_WriteReg(PSP, 0x20001000)  returns 0x00 (0000ms, 0855ms total)
T3D9C 001:606 JLINK_WriteReg(CFBP, 0x00000000)  returns 0x00 (0000ms, 0855ms total)
T3D9C 001:606 JLINK_SetBPEx(Addr = 0x20000000, Type = 0xFFFFFFF2)  returns 0x0000000A (0000ms, 0855ms total)
T3D9C 001:606 JLINK_Go() (0003ms, 0858ms total)
T3D9C 001:609 JLINK_IsHalted() -- CPU_ReadMem(2 bytes @ 0x20000000)  returns TRUE (0006ms, 0864ms total)
T3D9C 001:615 JLINK_ReadReg(R15 (PC))  returns 0x20000000 (0000ms, 0858ms total)
T3D9C 001:615 JLINK_ClrBPEx(BPHandle = 0x0000000A)  returns 0x00 (0000ms, 0858ms total)
T3D9C 001:615 JLINK_ReadReg(R0)  returns 0x00000001 (0001ms, 0859ms total)
T3D9C 001:616 JLINK_WriteReg(R0, 0x08001000)  returns 0x00 (0000ms, 0859ms total)
T3D9C 001:616 JLINK_WriteReg(R1, 0x00000400)  returns 0x00 (0000ms, 0859ms total)
T3D9C 001:616 JLINK_WriteReg(R2, 0x000000FF)  returns 0x00 (0000ms, 0859ms total)
T3D9C 001:616 JLINK_WriteReg(R3, 0x00000000)  returns 0x00 (0000ms, 0859ms total)
T3D9C 001:616 JLINK_WriteReg(R4, 0x00000000)  returns 0x00 (0000ms, 0859ms total)
T3D9C 001:616 JLINK_WriteReg(R5, 0x00000000)  returns 0x00 (0000ms, 0859ms total)
T3D9C 001:616 JLINK_WriteReg(R6, 0x00000000)  returns 0x00 (0000ms, 0859ms total)
T3D9C 001:616 JLINK_WriteReg(R7, 0x00000000)  returns 0x00 (0000ms, 0859ms total)
T3D9C 001:616 JLINK_WriteReg(R8, 0x00000000)  returns 0x00 (0001ms, 0860ms total)
T3D9C 001:617 JLINK_WriteReg(R9, 0x2000016C)  returns 0x00 (0000ms, 0860ms total)
T3D9C 001:617 JLINK_WriteReg(R10, 0x00000000)  returns 0x00 (0000ms, 0860ms total)
T3D9C 001:617 JLINK_WriteReg(R11, 0x00000000)  returns 0x00 (0000ms, 0860ms total)
T3D9C 001:617 JLINK_WriteReg(R12, 0x00000000)  returns 0x00 (0000ms, 0860ms total)
T3D9C 001:617 JLINK_WriteReg(R13 (SP), 0x20001000)  returns 0x00 (0000ms, 0860ms total)
T3D9C 001:617 JLINK_WriteReg(R14, 0x20000001)  returns 0x00 (0000ms, 0860ms total)
T3D9C 001:617 JLINK_WriteReg(R15 (PC), 0x200000B8)  returns 0x00 (0000ms, 0860ms total)
T3D9C 001:617 JLINK_WriteReg(XPSR, 0x01000000)  returns 0x00 (0000ms, 0860ms total)
T3D9C 001:617 JLINK_WriteReg(MSP, 0x20001000)  returns 0x00 (0001ms, 0861ms total)
T3D9C 001:618 JLINK_WriteReg(PSP, 0x20001000)  returns 0x00 (0000ms, 0861ms total)
T3D9C 001:618 JLINK_WriteReg(CFBP, 0x00000000)  returns 0x00 (0000ms, 0861ms total)
T3D9C 001:618 JLINK_SetBPEx(Addr = 0x20000000, Type = 0xFFFFFFF2)  returns 0x0000000B (0000ms, 0861ms total)
T3D9C 001:618 JLINK_Go() (0001ms, 0862ms total)
T3D9C 001:619 JLINK_IsHalted()  returns FALSE (0001ms, 0863ms total)
T3D9C 001:652 JLINK_IsHalted() -- CPU_ReadMem(2 bytes @ 0x20000000)  returns TRUE (0004ms, 0866ms total)
T3D9C 001:656 JLINK_ReadReg(R15 (PC))  returns 0x20000000 (0000ms, 0862ms total)
T3D9C 001:656 JLINK_ClrBPEx(BPHandle = 0x0000000B)  returns 0x00 (0000ms, 0862ms total)
T3D9C 001:656 JLINK_ReadReg(R0)  returns 0x00000000 (0000ms, 0862ms total)
T3D9C 001:658 JLINK_WriteReg(R0, 0x08001400)  returns 0x00 (0000ms, 0862ms total)
T3D9C 001:658 JLINK_WriteReg(R1, 0x00000400)  returns 0x00 (0000ms, 0862ms total)
T3D9C 001:658 JLINK_WriteReg(R2, 0x000000FF)  returns 0x00 (0000ms, 0862ms total)
T3D9C 001:658 JLINK_WriteReg(R3, 0x00000000)  returns 0x00 (0000ms, 0862ms total)
T3D9C 001:658 JLINK_WriteReg(R4, 0x00000000)  returns 0x00 (0000ms, 0862ms total)
T3D9C 001:658 JLINK_WriteReg(R5, 0x00000000)  returns 0x00 (0000ms, 0862ms total)
T3D9C 001:658 JLINK_WriteReg(R6, 0x00000000)  returns 0x00 (0000ms, 0862ms total)
T3D9C 001:658 JLINK_WriteReg(R7, 0x00000000)  returns 0x00 (0001ms, 0863ms total)
T3D9C 001:659 JLINK_WriteReg(R8, 0x00000000)  returns 0x00 (0000ms, 0863ms total)
T3D9C 001:659 JLINK_WriteReg(R9, 0x2000016C)  returns 0x00 (0000ms, 0863ms total)
T3D9C 001:659 JLINK_WriteReg(R10, 0x00000000)  returns 0x00 (0000ms, 0863ms total)
T3D9C 001:659 JLINK_WriteReg(R11, 0x00000000)  returns 0x00 (0000ms, 0863ms total)
T3D9C 001:659 JLINK_WriteReg(R12, 0x00000000)  returns 0x00 (0000ms, 0863ms total)
T3D9C 001:659 JLINK_WriteReg(R13 (SP), 0x20001000)  returns 0x00 (0000ms, 0863ms total)
T3D9C 001:659 JLINK_WriteReg(R14, 0x20000001)  returns 0x00 (0000ms, 0863ms total)
T3D9C 001:659 JLINK_WriteReg(R15 (PC), 0x20000020)  returns 0x00 (0000ms, 0863ms total)
T3D9C 001:659 JLINK_WriteReg(XPSR, 0x01000000)  returns 0x00 (0000ms, 0863ms total)
T3D9C 001:659 JLINK_WriteReg(MSP, 0x20001000)  returns 0x00 (0000ms, 0863ms total)
T3D9C 001:659 JLINK_WriteReg(PSP, 0x20001000)  returns 0x00 (0000ms, 0863ms total)
T3D9C 001:659 JLINK_WriteReg(CFBP, 0x00000000)  returns 0x00 (0000ms, 0863ms total)
T3D9C 001:659 JLINK_SetBPEx(Addr = 0x20000000, Type = 0xFFFFFFF2)  returns 0x0000000C (0000ms, 0863ms total)
T3D9C 001:659 JLINK_Go() (0002ms, 0865ms total)
T3D9C 001:661 JLINK_IsHalted() -- CPU_ReadMem(2 bytes @ 0x20000000)  returns TRUE (0005ms, 0870ms total)
T3D9C 001:666 JLINK_ReadReg(R15 (PC))  returns 0x20000000 (0000ms, 0865ms total)
T3D9C 001:666 JLINK_ClrBPEx(BPHandle = 0x0000000C)  returns 0x00 (0000ms, 0865ms total)
T3D9C 001:666 JLINK_ReadReg(R0)  returns 0x00000001 (0000ms, 0865ms total)
T3D9C 001:666 JLINK_WriteReg(R0, 0x08001400)  returns 0x00 (0000ms, 0865ms total)
T3D9C 001:666 JLINK_WriteReg(R1, 0x00000400)  returns 0x00 (0000ms, 0865ms total)
T3D9C 001:666 JLINK_WriteReg(R2, 0x000000FF)  returns 0x00 (0000ms, 0865ms total)
T3D9C 001:666 JLINK_WriteReg(R3, 0x00000000)  returns 0x00 (0000ms, 0865ms total)
T3D9C 001:666 JLINK_WriteReg(R4, 0x00000000)  returns 0x00 (0000ms, 0865ms total)
T3D9C 001:666 JLINK_WriteReg(R5, 0x00000000)  returns 0x00 (0000ms, 0865ms total)
T3D9C 001:666 JLINK_WriteReg(R6, 0x00000000)  returns 0x00 (0000ms, 0865ms total)
T3D9C 001:666 JLINK_WriteReg(R7, 0x00000000)  returns 0x00 (0000ms, 0865ms total)
T3D9C 001:666 JLINK_WriteReg(R8, 0x00000000)  returns 0x00 (0000ms, 0865ms total)
T3D9C 001:666 JLINK_WriteReg(R9, 0x2000016C)  returns 0x00 (0002ms, 0867ms total)
T3D9C 001:668 JLINK_WriteReg(R10, 0x00000000)  returns 0x00 (0000ms, 0867ms total)
T3D9C 001:668 JLINK_WriteReg(R11, 0x00000000)  returns 0x00 (0000ms, 0867ms total)
T3D9C 001:668 JLINK_WriteReg(R12, 0x00000000)  returns 0x00 (0000ms, 0867ms total)
T3D9C 001:668 JLINK_WriteReg(R13 (SP), 0x20001000)  returns 0x00 (0000ms, 0867ms total)
T3D9C 001:668 JLINK_WriteReg(R14, 0x20000001)  returns 0x00 (0000ms, 0867ms total)
T3D9C 001:668 JLINK_WriteReg(R15 (PC), 0x200000B8)  returns 0x00 (0000ms, 0867ms total)
T3D9C 001:668 JLINK_WriteReg(XPSR, 0x01000000)  returns 0x00 (0000ms, 0867ms total)
T3D9C 001:668 JLINK_WriteReg(MSP, 0x20001000)  returns 0x00 (0000ms, 0867ms total)
T3D9C 001:668 JLINK_WriteReg(PSP, 0x20001000)  returns 0x00 (0000ms, 0867ms total)
T3D9C 001:668 JLINK_WriteReg(CFBP, 0x00000000)  returns 0x00 (0000ms, 0867ms total)
T3D9C 001:668 JLINK_SetBPEx(Addr = 0x20000000, Type = 0xFFFFFFF2)  returns 0x0000000D (0000ms, 0867ms total)
T3D9C 001:668 JLINK_Go() (0002ms, 0869ms total)
T3D9C 001:670 JLINK_IsHalted()  returns FALSE (0000ms, 0869ms total)
T3D9C 001:673 JLINK_IsHalted()  returns FALSE (0000ms, 0869ms total)
T3D9C 001:675 JLINK_IsHalted()  returns FALSE (0000ms, 0869ms total)
T3D9C 001:677 JLINK_IsHalted()  returns FALSE (0000ms, 0869ms total)
T3D9C 001:689 JLINK_IsHalted()  returns FALSE (0000ms, 0869ms total)
T3D9C 001:691 JLINK_IsHalted()  returns FALSE (0000ms, 0869ms total)
T3D9C 001:694 JLINK_IsHalted() -- CPU_ReadMem(2 bytes @ 0x20000000)  returns TRUE (0004ms, 0873ms total)
T3D9C 001:698 JLINK_ReadReg(R15 (PC))  returns 0x20000000 (0000ms, 0869ms total)
T3D9C 001:698 JLINK_ClrBPEx(BPHandle = 0x0000000D)  returns 0x00 (0000ms, 0869ms total)
T3D9C 001:698 JLINK_ReadReg(R0)  returns 0x00000000 (0000ms, 0869ms total)
T3D9C 001:700 JLINK_WriteReg(R0, 0x08001800)  returns 0x00 (0000ms, 0869ms total)
T3D9C 001:700 JLINK_WriteReg(R1, 0x00000400)  returns 0x00 (0000ms, 0869ms total)
T3D9C 001:700 JLINK_WriteReg(R2, 0x000000FF)  returns 0x00 (0000ms, 0869ms total)
T3D9C 001:700 JLINK_WriteReg(R3, 0x00000000)  returns 0x00 (0000ms, 0869ms total)
T3D9C 001:700 JLINK_WriteReg(R4, 0x00000000)  returns 0x00 (0000ms, 0869ms total)
T3D9C 001:700 JLINK_WriteReg(R5, 0x00000000)  returns 0x00 (0000ms, 0869ms total)
T3D9C 001:700 JLINK_WriteReg(R6, 0x00000000)  returns 0x00 (0000ms, 0869ms total)
T3D9C 001:700 JLINK_WriteReg(R7, 0x00000000)  returns 0x00 (0000ms, 0869ms total)
T3D9C 001:700 JLINK_WriteReg(R8, 0x00000000)  returns 0x00 (0000ms, 0869ms total)
T3D9C 001:700 JLINK_WriteReg(R9, 0x2000016C)  returns 0x00 (0000ms, 0869ms total)
T3D9C 001:700 JLINK_WriteReg(R10, 0x00000000)  returns 0x00 (0000ms, 0869ms total)
T3D9C 001:700 JLINK_WriteReg(R11, 0x00000000)  returns 0x00 (0000ms, 0869ms total)
T3D9C 001:700 JLINK_WriteReg(R12, 0x00000000)  returns 0x00 (0000ms, 0869ms total)
T3D9C 001:701 JLINK_WriteReg(R13 (SP), 0x20001000)  returns 0x00 (0000ms, 0870ms total)
T3D9C 001:701 JLINK_WriteReg(R14, 0x20000001)  returns 0x00 (0000ms, 0870ms total)
T3D9C 001:701 JLINK_WriteReg(R15 (PC), 0x20000020)  returns 0x00 (0000ms, 0870ms total)
T3D9C 001:701 JLINK_WriteReg(XPSR, 0x01000000)  returns 0x00 (0000ms, 0870ms total)
T3D9C 001:701 JLINK_WriteReg(MSP, 0x20001000)  returns 0x00 (0000ms, 0870ms total)
T3D9C 001:701 JLINK_WriteReg(PSP, 0x20001000)  returns 0x00 (0000ms, 0870ms total)
T3D9C 001:701 JLINK_WriteReg(CFBP, 0x00000000)  returns 0x00 (0000ms, 0870ms total)
T3D9C 001:701 JLINK_SetBPEx(Addr = 0x20000000, Type = 0xFFFFFFF2)  returns 0x0000000E (0000ms, 0870ms total)
T3D9C 001:701 JLINK_Go() (0002ms, 0872ms total)
T3D9C 001:703 JLINK_IsHalted() -- CPU_ReadMem(2 bytes @ 0x20000000)  returns TRUE (0005ms, 0877ms total)
T3D9C 001:708 JLINK_ReadReg(R15 (PC))  returns 0x20000000 (0000ms, 0872ms total)
T3D9C 001:708 JLINK_ClrBPEx(BPHandle = 0x0000000E)  returns 0x00 (0000ms, 0872ms total)
T3D9C 001:708 JLINK_ReadReg(R0)  returns 0x00000001 (0000ms, 0872ms total)
T3D9C 001:708 JLINK_WriteReg(R0, 0x08001800)  returns 0x00 (0000ms, 0872ms total)
T3D9C 001:708 JLINK_WriteReg(R1, 0x00000400)  returns 0x00 (0000ms, 0872ms total)
T3D9C 001:708 JLINK_WriteReg(R2, 0x000000FF)  returns 0x00 (0000ms, 0872ms total)
T3D9C 001:708 JLINK_WriteReg(R3, 0x00000000)  returns 0x00 (0000ms, 0872ms total)
T3D9C 001:708 JLINK_WriteReg(R4, 0x00000000)  returns 0x00 (0000ms, 0872ms total)
T3D9C 001:708 JLINK_WriteReg(R5, 0x00000000)  returns 0x00 (0000ms, 0872ms total)
T3D9C 001:708 JLINK_WriteReg(R6, 0x00000000)  returns 0x00 (0000ms, 0872ms total)
T3D9C 001:708 JLINK_WriteReg(R7, 0x00000000)  returns 0x00 (0000ms, 0872ms total)
T3D9C 001:708 JLINK_WriteReg(R8, 0x00000000)  returns 0x00 (0000ms, 0872ms total)
T3D9C 001:708 JLINK_WriteReg(R9, 0x2000016C)  returns 0x00 (0002ms, 0874ms total)
T3D9C 001:710 JLINK_WriteReg(R10, 0x00000000)  returns 0x00 (0000ms, 0874ms total)
T3D9C 001:710 JLINK_WriteReg(R11, 0x00000000)  returns 0x00 (0000ms, 0874ms total)
T3D9C 001:710 JLINK_WriteReg(R12, 0x00000000)  returns 0x00 (0000ms, 0874ms total)
T3D9C 001:710 JLINK_WriteReg(R13 (SP), 0x20001000)  returns 0x00 (0000ms, 0874ms total)
T3D9C 001:710 JLINK_WriteReg(R14, 0x20000001)  returns 0x00 (0000ms, 0874ms total)
T3D9C 001:710 JLINK_WriteReg(R15 (PC), 0x200000B8)  returns 0x00 (0000ms, 0874ms total)
T3D9C 001:710 JLINK_WriteReg(XPSR, 0x01000000)  returns 0x00 (0000ms, 0874ms total)
T3D9C 001:710 JLINK_WriteReg(MSP, 0x20001000)  returns 0x00 (0000ms, 0874ms total)
T3D9C 001:710 JLINK_WriteReg(PSP, 0x20001000)  returns 0x00 (0000ms, 0874ms total)
T3D9C 001:710 JLINK_WriteReg(CFBP, 0x00000000)  returns 0x00 (0000ms, 0874ms total)
T3D9C 001:710 JLINK_SetBPEx(Addr = 0x20000000, Type = 0xFFFFFFF2)  returns 0x0000000F (0000ms, 0874ms total)
T3D9C 001:710 JLINK_Go() (0002ms, 0876ms total)
T3D9C 001:712 JLINK_IsHalted()  returns FALSE (0000ms, 0876ms total)
T3D9C 001:728 JLINK_IsHalted()  returns FALSE (0000ms, 0876ms total)
T3D9C 001:736 JLINK_IsHalted() -- CPU_ReadMem(2 bytes @ 0x20000000)  returns TRUE (0005ms, 0881ms total)
T3D9C 001:741 JLINK_ReadReg(R15 (PC))  returns 0x20000000 (0000ms, 0876ms total)
T3D9C 001:741 JLINK_ClrBPEx(BPHandle = 0x0000000F)  returns 0x00 (0000ms, 0876ms total)
T3D9C 001:741 JLINK_ReadReg(R0)  returns 0x00000000 (0000ms, 0876ms total)
T3D9C 001:742 JLINK_WriteReg(R0, 0x08001C00)  returns 0x00 (0000ms, 0876ms total)
T3D9C 001:742 JLINK_WriteReg(R1, 0x00000400)  returns 0x00 (0000ms, 0876ms total)
T3D9C 001:742 JLINK_WriteReg(R2, 0x000000FF)  returns 0x00 (0000ms, 0876ms total)
T3D9C 001:742 JLINK_WriteReg(R3, 0x00000000)  returns 0x00 (0000ms, 0876ms total)
T3D9C 001:743 JLINK_WriteReg(R4, 0x00000000)  returns 0x00 (0000ms, 0877ms total)
T3D9C 001:743 JLINK_WriteReg(R5, 0x00000000)  returns 0x00 (0000ms, 0877ms total)
T3D9C 001:743 JLINK_WriteReg(R6, 0x00000000)  returns 0x00 (0000ms, 0877ms total)
T3D9C 001:743 JLINK_WriteReg(R7, 0x00000000)  returns 0x00 (0000ms, 0877ms total)
T3D9C 001:743 JLINK_WriteReg(R8, 0x00000000)  returns 0x00 (0000ms, 0877ms total)
T3D9C 001:743 JLINK_WriteReg(R9, 0x2000016C)  returns 0x00 (0000ms, 0877ms total)
T3D9C 001:743 JLINK_WriteReg(R10, 0x00000000)  returns 0x00 (0000ms, 0877ms total)
T3D9C 001:743 JLINK_WriteReg(R11, 0x00000000)  returns 0x00 (0000ms, 0877ms total)
T3D9C 001:743 JLINK_WriteReg(R12, 0x00000000)  returns 0x00 (0000ms, 0877ms total)
T3D9C 001:743 JLINK_WriteReg(R13 (SP), 0x20001000)  returns 0x00 (0000ms, 0877ms total)
T3D9C 001:743 JLINK_WriteReg(R14, 0x20000001)  returns 0x00 (0000ms, 0877ms total)
T3D9C 001:743 JLINK_WriteReg(R15 (PC), 0x20000020)  returns 0x00 (0000ms, 0877ms total)
T3D9C 001:743 JLINK_WriteReg(XPSR, 0x01000000)  returns 0x00 (0000ms, 0877ms total)
T3D9C 001:743 JLINK_WriteReg(MSP, 0x20001000)  returns 0x00 (0000ms, 0877ms total)
T3D9C 001:743 JLINK_WriteReg(PSP, 0x20001000)  returns 0x00 (0000ms, 0877ms total)
T3D9C 001:743 JLINK_WriteReg(CFBP, 0x00000000)  returns 0x00 (0000ms, 0877ms total)
T3D9C 001:743 JLINK_SetBPEx(Addr = 0x20000000, Type = 0xFFFFFFF2)  returns 0x00000010 (0000ms, 0877ms total)
T3D9C 001:743 JLINK_Go() (0003ms, 0880ms total)
T3D9C 001:746 JLINK_IsHalted() -- CPU_ReadMem(2 bytes @ 0x20000000)  returns TRUE (0004ms, 0884ms total)
T3D9C 001:750 JLINK_ReadReg(R15 (PC))  returns 0x20000000 (0000ms, 0880ms total)
T3D9C 001:750 JLINK_ClrBPEx(BPHandle = 0x00000010)  returns 0x00 (0000ms, 0880ms total)
T3D9C 001:750 JLINK_ReadReg(R0)  returns 0x00000001 (0000ms, 0880ms total)
T3D9C 001:750 JLINK_WriteReg(R0, 0x08001C00)  returns 0x00 (0000ms, 0880ms total)
T3D9C 001:750 JLINK_WriteReg(R1, 0x00000400)  returns 0x00 (0000ms, 0880ms total)
T3D9C 001:750 JLINK_WriteReg(R2, 0x000000FF)  returns 0x00 (0000ms, 0880ms total)
T3D9C 001:750 JLINK_WriteReg(R3, 0x00000000)  returns 0x00 (0000ms, 0880ms total)
T3D9C 001:750 JLINK_WriteReg(R4, 0x00000000)  returns 0x00 (0000ms, 0880ms total)
T3D9C 001:750 JLINK_WriteReg(R5, 0x00000000)  returns 0x00 (0000ms, 0880ms total)
T3D9C 001:750 JLINK_WriteReg(R6, 0x00000000)  returns 0x00 (0000ms, 0880ms total)
T3D9C 001:750 JLINK_WriteReg(R7, 0x00000000)  returns 0x00 (0002ms, 0882ms total)
T3D9C 001:752 JLINK_WriteReg(R8, 0x00000000)  returns 0x00 (0000ms, 0882ms total)
T3D9C 001:752 JLINK_WriteReg(R9, 0x2000016C)  returns 0x00 (0000ms, 0882ms total)
T3D9C 001:752 JLINK_WriteReg(R10, 0x00000000)  returns 0x00 (0000ms, 0882ms total)
T3D9C 001:752 JLINK_WriteReg(R11, 0x00000000)  returns 0x00 (0000ms, 0882ms total)
T3D9C 001:752 JLINK_WriteReg(R12, 0x00000000)  returns 0x00 (0000ms, 0882ms total)
T3D9C 001:752 JLINK_WriteReg(R13 (SP), 0x20001000)  returns 0x00 (0000ms, 0882ms total)
T3D9C 001:752 JLINK_WriteReg(R14, 0x20000001)  returns 0x00 (0000ms, 0882ms total)
T3D9C 001:752 JLINK_WriteReg(R15 (PC), 0x200000B8)  returns 0x00 (0000ms, 0882ms total)
T3D9C 001:752 JLINK_WriteReg(XPSR, 0x01000000)  returns 0x00 (0000ms, 0882ms total)
T3D9C 001:752 JLINK_WriteReg(MSP, 0x20001000)  returns 0x00 (0000ms, 0882ms total)
T3D9C 001:752 JLINK_WriteReg(PSP, 0x20001000)  returns 0x00 (0000ms, 0882ms total)
T3D9C 001:752 JLINK_WriteReg(CFBP, 0x00000000)  returns 0x00 (0000ms, 0882ms total)
T3D9C 001:752 JLINK_SetBPEx(Addr = 0x20000000, Type = 0xFFFFFFF2)  returns 0x00000011 (0000ms, 0882ms total)
T3D9C 001:752 JLINK_Go() (0002ms, 0884ms total)
T3D9C 001:754 JLINK_IsHalted()  returns FALSE (0001ms, 0885ms total)
T3D9C 001:763 JLINK_IsHalted()  returns FALSE (0000ms, 0884ms total)
T3D9C 001:765 JLINK_IsHalted()  returns FALSE (0000ms, 0884ms total)
T3D9C 001:767 JLINK_IsHalted()  returns FALSE (0000ms, 0884ms total)
T3D9C 001:769 JLINK_IsHalted()  returns FALSE (0000ms, 0884ms total)
T3D9C 001:771 JLINK_IsHalted()  returns FALSE (0000ms, 0884ms total)
T3D9C 001:773 JLINK_IsHalted()  returns FALSE (0000ms, 0884ms total)
T3D9C 001:775 JLINK_IsHalted()  returns FALSE (0000ms, 0884ms total)
T3D9C 001:777 JLINK_IsHalted() -- CPU_ReadMem(2 bytes @ 0x20000000)  returns TRUE (0005ms, 0889ms total)
T3D9C 001:782 JLINK_ReadReg(R15 (PC))  returns 0x20000000 (0000ms, 0884ms total)
T3D9C 001:782 JLINK_ClrBPEx(BPHandle = 0x00000011)  returns 0x00 (0000ms, 0884ms total)
T3D9C 001:782 JLINK_ReadReg(R0)  returns 0x00000000 (0001ms, 0885ms total)
T3D9C 001:783 JLINK_WriteReg(R0, 0x08002000)  returns 0x00 (0000ms, 0885ms total)
T3D9C 001:783 JLINK_WriteReg(R1, 0x00000400)  returns 0x00 (0000ms, 0885ms total)
T3D9C 001:783 JLINK_WriteReg(R2, 0x000000FF)  returns 0x00 (0000ms, 0885ms total)
T3D9C 001:783 JLINK_WriteReg(R3, 0x00000000)  returns 0x00 (0000ms, 0885ms total)
T3D9C 001:783 JLINK_WriteReg(R4, 0x00000000)  returns 0x00 (0000ms, 0885ms total)
T3D9C 001:783 JLINK_WriteReg(R5, 0x00000000)  returns 0x00 (0000ms, 0885ms total)
T3D9C 001:784 JLINK_WriteReg(R6, 0x00000000)  returns 0x00 (0000ms, 0885ms total)
T3D9C 001:784 JLINK_WriteReg(R7, 0x00000000)  returns 0x00 (0000ms, 0885ms total)
T3D9C 001:784 JLINK_WriteReg(R8, 0x00000000)  returns 0x00 (0000ms, 0885ms total)
T3D9C 001:784 JLINK_WriteReg(R9, 0x2000016C)  returns 0x00 (0000ms, 0885ms total)
T3D9C 001:784 JLINK_WriteReg(R10, 0x00000000)  returns 0x00 (0000ms, 0885ms total)
T3D9C 001:784 JLINK_WriteReg(R11, 0x00000000)  returns 0x00 (0000ms, 0885ms total)
T3D9C 001:784 JLINK_WriteReg(R12, 0x00000000)  returns 0x00 (0000ms, 0885ms total)
T3D9C 001:784 JLINK_WriteReg(R13 (SP), 0x20001000)  returns 0x00 (0000ms, 0885ms total)
T3D9C 001:784 JLINK_WriteReg(R14, 0x20000001)  returns 0x00 (0000ms, 0885ms total)
T3D9C 001:784 JLINK_WriteReg(R15 (PC), 0x20000020)  returns 0x00 (0000ms, 0885ms total)
T3D9C 001:784 JLINK_WriteReg(XPSR, 0x01000000)  returns 0x00 (0000ms, 0885ms total)
T3D9C 001:784 JLINK_WriteReg(MSP, 0x20001000)  returns 0x00 (0000ms, 0885ms total)
T3D9C 001:784 JLINK_WriteReg(PSP, 0x20001000)  returns 0x00 (0000ms, 0885ms total)
T3D9C 001:784 JLINK_WriteReg(CFBP, 0x00000000)  returns 0x00 (0000ms, 0885ms total)
T3D9C 001:784 JLINK_SetBPEx(Addr = 0x20000000, Type = 0xFFFFFFF2)  returns 0x00000012 (0000ms, 0885ms total)
T3D9C 001:784 JLINK_Go() (0002ms, 0887ms total)
T3D9C 001:786 JLINK_IsHalted() -- CPU_ReadMem(2 bytes @ 0x20000000)  returns TRUE (0005ms, 0892ms total)
T3D9C 001:791 JLINK_ReadReg(R15 (PC))  returns 0x20000000 (0000ms, 0887ms total)
T3D9C 001:791 JLINK_ClrBPEx(BPHandle = 0x00000012)  returns 0x00 (0000ms, 0887ms total)
T3D9C 001:791 JLINK_ReadReg(R0)  returns 0x00000001 (0000ms, 0887ms total)
T3D9C 001:791 JLINK_WriteReg(R0, 0x08002000)  returns 0x00 (0000ms, 0887ms total)
T3D9C 001:791 JLINK_WriteReg(R1, 0x00000400)  returns 0x00 (0000ms, 0887ms total)
T3D9C 001:791 JLINK_WriteReg(R2, 0x000000FF)  returns 0x00 (0000ms, 0887ms total)
T3D9C 001:791 JLINK_WriteReg(R3, 0x00000000)  returns 0x00 (0000ms, 0887ms total)
T3D9C 001:791 JLINK_WriteReg(R4, 0x00000000)  returns 0x00 (0000ms, 0887ms total)
T3D9C 001:791 JLINK_WriteReg(R5, 0x00000000)  returns 0x00 (0000ms, 0887ms total)
T3D9C 001:791 JLINK_WriteReg(R6, 0x00000000)  returns 0x00 (0000ms, 0887ms total)
T3D9C 001:791 JLINK_WriteReg(R7, 0x00000000)  returns 0x00 (0000ms, 0887ms total)
T3D9C 001:793 JLINK_WriteReg(R8, 0x00000000)  returns 0x00 (0000ms, 0889ms total)
T3D9C 001:793 JLINK_WriteReg(R9, 0x2000016C)  returns 0x00 (0000ms, 0889ms total)
T3D9C 001:793 JLINK_WriteReg(R10, 0x00000000)  returns 0x00 (0000ms, 0889ms total)
T3D9C 001:793 JLINK_WriteReg(R11, 0x00000000)  returns 0x00 (0000ms, 0889ms total)
T3D9C 001:793 JLINK_WriteReg(R12, 0x00000000)  returns 0x00 (0000ms, 0889ms total)
T3D9C 001:793 JLINK_WriteReg(R13 (SP), 0x20001000)  returns 0x00 (0000ms, 0889ms total)
T3D9C 001:793 JLINK_WriteReg(R14, 0x20000001)  returns 0x00 (0000ms, 0889ms total)
T3D9C 001:793 JLINK_WriteReg(R15 (PC), 0x200000B8)  returns 0x00 (0000ms, 0889ms total)
T3D9C 001:793 JLINK_WriteReg(XPSR, 0x01000000)  returns 0x00 (0000ms, 0889ms total)
T3D9C 001:793 JLINK_WriteReg(MSP, 0x20001000)  returns 0x00 (0000ms, 0889ms total)
T3D9C 001:793 JLINK_WriteReg(PSP, 0x20001000)  returns 0x00 (0000ms, 0889ms total)
T3D9C 001:793 JLINK_WriteReg(CFBP, 0x00000000)  returns 0x00 (0000ms, 0889ms total)
T3D9C 001:793 JLINK_SetBPEx(Addr = 0x20000000, Type = 0xFFFFFFF2)  returns 0x00000013 (0000ms, 0889ms total)
T3D9C 001:793 JLINK_Go() (0002ms, 0891ms total)
